v2	V(vbb)	V(vcc)	I(I1)	I(V2)	Ib(Q1)	Ic(Q1)	Ie(Q1)
-4.000000000000000e+00	-6.608585e-01	-4.000000e+00	-1.800000e-05	3.886192e-03	-1.800000e-05	-3.886192e-03	3.904192e-03
-3.990000000000000e+00	-6.608584e-01	-3.990000e+00	-1.800000e-05	3.885710e-03	-1.800000e-05	-3.885710e-03	3.903710e-03
-3.980000000000000e+00	-6.608583e-01	-3.980000e+00	-1.800000e-05	3.885227e-03	-1.800000e-05	-3.885227e-03	3.903227e-03
-3.970000000000001e+00	-6.608582e-01	-3.970000e+00	-1.800000e-05	3.884745e-03	-1.800000e-05	-3.884745e-03	3.902745e-03
-3.960000000000001e+00	-6.608581e-01	-3.960000e+00	-1.800000e-05	3.884263e-03	-1.800000e-05	-3.884263e-03	3.902263e-03
-3.950000000000001e+00	-6.608580e-01	-3.950000e+00	-1.800000e-05	3.883780e-03	-1.800000e-05	-3.883780e-03	3.901780e-03
-3.940000000000001e+00	-6.608579e-01	-3.940000e+00	-1.800000e-05	3.883298e-03	-1.800000e-05	-3.883298e-03	3.901298e-03
-3.930000000000001e+00	-6.608578e-01	-3.930000e+00	-1.800000e-05	3.882816e-03	-1.800000e-05	-3.882816e-03	3.900815e-03
-3.920000000000002e+00	-6.608577e-01	-3.920000e+00	-1.800000e-05	3.882333e-03	-1.800000e-05	-3.882333e-03	3.900333e-03
-3.910000000000002e+00	-6.608576e-01	-3.910000e+00	-1.800000e-05	3.881851e-03	-1.800000e-05	-3.881851e-03	3.899851e-03
-3.900000000000002e+00	-6.608575e-01	-3.900000e+00	-1.800000e-05	3.881369e-03	-1.800000e-05	-3.881369e-03	3.899368e-03
-3.890000000000002e+00	-6.608574e-01	-3.890000e+00	-1.800000e-05	3.880886e-03	-1.800000e-05	-3.880886e-03	3.898886e-03
-3.880000000000003e+00	-6.608573e-01	-3.880000e+00	-1.800000e-05	3.880404e-03	-1.800000e-05	-3.880404e-03	3.898404e-03
-3.870000000000003e+00	-6.608572e-01	-3.870000e+00	-1.800000e-05	3.879922e-03	-1.800000e-05	-3.879922e-03	3.897921e-03
-3.860000000000003e+00	-6.608571e-01	-3.860000e+00	-1.800000e-05	3.879439e-03	-1.800000e-05	-3.879439e-03	3.897439e-03
-3.850000000000003e+00	-6.608570e-01	-3.850000e+00	-1.800000e-05	3.878957e-03	-1.800000e-05	-3.878957e-03	3.896957e-03
-3.840000000000003e+00	-6.608569e-01	-3.840000e+00	-1.800000e-05	3.878474e-03	-1.800000e-05	-3.878474e-03	3.896474e-03
-3.830000000000004e+00	-6.608568e-01	-3.830000e+00	-1.800000e-05	3.877992e-03	-1.800000e-05	-3.877992e-03	3.895992e-03
-3.820000000000004e+00	-6.608567e-01	-3.820000e+00	-1.800000e-05	3.877510e-03	-1.800000e-05	-3.877510e-03	3.895510e-03
-3.810000000000004e+00	-6.608567e-01	-3.810000e+00	-1.800000e-05	3.877027e-03	-1.800000e-05	-3.877027e-03	3.895027e-03
-3.800000000000004e+00	-6.608565e-01	-3.800000e+00	-1.800000e-05	3.876545e-03	-1.800000e-05	-3.876545e-03	3.894545e-03
-3.790000000000004e+00	-6.608564e-01	-3.790000e+00	-1.800000e-05	3.876063e-03	-1.800000e-05	-3.876063e-03	3.894062e-03
-3.780000000000005e+00	-6.608564e-01	-3.780000e+00	-1.800000e-05	3.875580e-03	-1.800000e-05	-3.875580e-03	3.893580e-03
-3.770000000000005e+00	-6.608562e-01	-3.770000e+00	-1.800000e-05	3.875098e-03	-1.800000e-05	-3.875098e-03	3.893098e-03
-3.760000000000005e+00	-6.608561e-01	-3.760000e+00	-1.800000e-05	3.874616e-03	-1.800000e-05	-3.874616e-03	3.892615e-03
-3.750000000000005e+00	-6.608561e-01	-3.750000e+00	-1.800000e-05	3.874133e-03	-1.800000e-05	-3.874133e-03	3.892133e-03
-3.740000000000006e+00	-6.608559e-01	-3.740000e+00	-1.800000e-05	3.873651e-03	-1.800000e-05	-3.873651e-03	3.891651e-03
-3.730000000000006e+00	-6.608559e-01	-3.730000e+00	-1.800000e-05	3.873168e-03	-1.800000e-05	-3.873168e-03	3.891168e-03
-3.720000000000006e+00	-6.608558e-01	-3.720000e+00	-1.800000e-05	3.872686e-03	-1.800000e-05	-3.872686e-03	3.890686e-03
-3.710000000000006e+00	-6.608557e-01	-3.710000e+00	-1.800000e-05	3.872204e-03	-1.800000e-05	-3.872204e-03	3.890204e-03
-3.700000000000006e+00	-6.608556e-01	-3.700000e+00	-1.800000e-05	3.871721e-03	-1.800000e-05	-3.871721e-03	3.889721e-03
-3.690000000000007e+00	-6.608555e-01	-3.690000e+00	-1.800000e-05	3.871239e-03	-1.800000e-05	-3.871239e-03	3.889239e-03
-3.680000000000007e+00	-6.608554e-01	-3.680000e+00	-1.800000e-05	3.870757e-03	-1.800000e-05	-3.870757e-03	3.888757e-03
-3.670000000000007e+00	-6.608553e-01	-3.670000e+00	-1.800000e-05	3.870274e-03	-1.800000e-05	-3.870274e-03	3.888274e-03
-3.660000000000007e+00	-6.608552e-01	-3.660000e+00	-1.800000e-05	3.869792e-03	-1.800000e-05	-3.869792e-03	3.887792e-03
-3.650000000000007e+00	-6.608551e-01	-3.650000e+00	-1.800000e-05	3.869310e-03	-1.800000e-05	-3.869310e-03	3.887309e-03
-3.640000000000008e+00	-6.608550e-01	-3.640000e+00	-1.800000e-05	3.868827e-03	-1.800000e-05	-3.868827e-03	3.886827e-03
-3.630000000000008e+00	-6.608549e-01	-3.630000e+00	-1.800000e-05	3.868345e-03	-1.800000e-05	-3.868345e-03	3.886345e-03
-3.620000000000008e+00	-6.608548e-01	-3.620000e+00	-1.800000e-05	3.867863e-03	-1.800000e-05	-3.867863e-03	3.885862e-03
-3.610000000000008e+00	-6.608547e-01	-3.610000e+00	-1.800000e-05	3.867380e-03	-1.800000e-05	-3.867380e-03	3.885380e-03
-3.600000000000009e+00	-6.608546e-01	-3.600000e+00	-1.800000e-05	3.866898e-03	-1.800000e-05	-3.866898e-03	3.884898e-03
-3.590000000000009e+00	-6.608545e-01	-3.590000e+00	-1.800000e-05	3.866415e-03	-1.800000e-05	-3.866415e-03	3.884415e-03
-3.580000000000009e+00	-6.608544e-01	-3.580000e+00	-1.800000e-05	3.865933e-03	-1.800000e-05	-3.865933e-03	3.883933e-03
-3.570000000000009e+00	-6.608543e-01	-3.570000e+00	-1.800000e-05	3.865451e-03	-1.800000e-05	-3.865451e-03	3.883451e-03
-3.560000000000009e+00	-6.608542e-01	-3.560000e+00	-1.800000e-05	3.864968e-03	-1.800000e-05	-3.864968e-03	3.882968e-03
-3.550000000000010e+00	-6.608541e-01	-3.550000e+00	-1.800000e-05	3.864486e-03	-1.800000e-05	-3.864486e-03	3.882486e-03
-3.540000000000010e+00	-6.608540e-01	-3.540000e+00	-1.800000e-05	3.864004e-03	-1.800000e-05	-3.864004e-03	3.882004e-03
-3.530000000000010e+00	-6.608539e-01	-3.530000e+00	-1.800000e-05	3.863521e-03	-1.800000e-05	-3.863521e-03	3.881521e-03
-3.520000000000010e+00	-6.608539e-01	-3.520000e+00	-1.800000e-05	3.863039e-03	-1.800000e-05	-3.863039e-03	3.881039e-03
-3.510000000000010e+00	-6.608537e-01	-3.510000e+00	-1.800000e-05	3.862557e-03	-1.800000e-05	-3.862557e-03	3.880557e-03
-3.500000000000011e+00	-6.608536e-01	-3.500000e+00	-1.800000e-05	3.862074e-03	-1.800000e-05	-3.862074e-03	3.880074e-03
-3.490000000000011e+00	-6.608536e-01	-3.490000e+00	-1.800000e-05	3.861592e-03	-1.800000e-05	-3.861592e-03	3.879592e-03
-3.480000000000011e+00	-6.608534e-01	-3.480000e+00	-1.800000e-05	3.861109e-03	-1.800000e-05	-3.861109e-03	3.879110e-03
-3.470000000000011e+00	-6.608534e-01	-3.470000e+00	-1.800000e-05	3.860627e-03	-1.800000e-05	-3.860627e-03	3.878627e-03
-3.460000000000012e+00	-6.608533e-01	-3.460000e+00	-1.800000e-05	3.860145e-03	-1.800000e-05	-3.860145e-03	3.878145e-03
-3.450000000000012e+00	-6.608531e-01	-3.450000e+00	-1.800000e-05	3.859662e-03	-1.800000e-05	-3.859662e-03	3.877662e-03
-3.440000000000012e+00	-6.608531e-01	-3.440000e+00	-1.800000e-05	3.859180e-03	-1.800000e-05	-3.859180e-03	3.877180e-03
-3.430000000000012e+00	-6.608530e-01	-3.430000e+00	-1.800000e-05	3.858698e-03	-1.800000e-05	-3.858698e-03	3.876698e-03
-3.420000000000012e+00	-6.608528e-01	-3.420000e+00	-1.800000e-05	3.858215e-03	-1.800000e-05	-3.858215e-03	3.876215e-03
-3.410000000000013e+00	-6.608528e-01	-3.410000e+00	-1.800000e-05	3.857733e-03	-1.800000e-05	-3.857733e-03	3.875733e-03
-3.400000000000013e+00	-6.608527e-01	-3.400000e+00	-1.800000e-05	3.857251e-03	-1.800000e-05	-3.857251e-03	3.875251e-03
-3.390000000000013e+00	-6.608526e-01	-3.390000e+00	-1.800000e-05	3.856768e-03	-1.800000e-05	-3.856768e-03	3.874768e-03
-3.380000000000013e+00	-6.608525e-01	-3.380000e+00	-1.800000e-05	3.856286e-03	-1.800000e-05	-3.856286e-03	3.874286e-03
-3.370000000000013e+00	-6.608524e-01	-3.370000e+00	-1.800000e-05	3.855804e-03	-1.800000e-05	-3.855804e-03	3.873804e-03
-3.360000000000014e+00	-6.608523e-01	-3.360000e+00	-1.800000e-05	3.855321e-03	-1.800000e-05	-3.855321e-03	3.873321e-03
-3.350000000000014e+00	-6.608522e-01	-3.350000e+00	-1.800000e-05	3.854839e-03	-1.800000e-05	-3.854839e-03	3.872839e-03
-3.340000000000014e+00	-6.608521e-01	-3.340000e+00	-1.800000e-05	3.854356e-03	-1.800000e-05	-3.854356e-03	3.872357e-03
-3.330000000000014e+00	-6.608520e-01	-3.330000e+00	-1.800000e-05	3.853874e-03	-1.800000e-05	-3.853874e-03	3.871874e-03
-3.320000000000014e+00	-6.608519e-01	-3.320000e+00	-1.800000e-05	3.853392e-03	-1.800000e-05	-3.853392e-03	3.871392e-03
-3.310000000000015e+00	-6.608518e-01	-3.310000e+00	-1.800000e-05	3.852909e-03	-1.800000e-05	-3.852909e-03	3.870910e-03
-3.300000000000015e+00	-6.608517e-01	-3.300000e+00	-1.800000e-05	3.852427e-03	-1.800000e-05	-3.852427e-03	3.870427e-03
-3.290000000000015e+00	-6.608516e-01	-3.290000e+00	-1.800000e-05	3.851945e-03	-1.800000e-05	-3.851945e-03	3.869945e-03
-3.280000000000015e+00	-6.608515e-01	-3.280000e+00	-1.800000e-05	3.851462e-03	-1.800000e-05	-3.851462e-03	3.869462e-03
-3.270000000000016e+00	-6.608514e-01	-3.270000e+00	-1.800000e-05	3.850980e-03	-1.800000e-05	-3.850980e-03	3.868980e-03
-3.260000000000016e+00	-6.608514e-01	-3.260000e+00	-1.800000e-05	3.850498e-03	-1.800000e-05	-3.850498e-03	3.868498e-03
-3.250000000000016e+00	-6.608512e-01	-3.250000e+00	-1.800000e-05	3.850015e-03	-1.800000e-05	-3.850015e-03	3.868015e-03
-3.240000000000016e+00	-6.608511e-01	-3.240000e+00	-1.800000e-05	3.849533e-03	-1.800000e-05	-3.849533e-03	3.867533e-03
-3.230000000000016e+00	-6.608511e-01	-3.230000e+00	-1.800000e-05	3.849051e-03	-1.800000e-05	-3.849051e-03	3.867051e-03
-3.220000000000017e+00	-6.608509e-01	-3.220000e+00	-1.800000e-05	3.848568e-03	-1.800000e-05	-3.848568e-03	3.866568e-03
-3.210000000000017e+00	-6.608508e-01	-3.210000e+00	-1.800000e-05	3.848086e-03	-1.800000e-05	-3.848086e-03	3.866086e-03
-3.200000000000017e+00	-6.608508e-01	-3.200000e+00	-1.800000e-05	3.847603e-03	-1.800000e-05	-3.847603e-03	3.865604e-03
-3.190000000000017e+00	-6.608506e-01	-3.190000e+00	-1.800000e-05	3.847121e-03	-1.800000e-05	-3.847121e-03	3.865121e-03
-3.180000000000017e+00	-6.608506e-01	-3.180000e+00	-1.800000e-05	3.846639e-03	-1.800000e-05	-3.846639e-03	3.864639e-03
-3.170000000000018e+00	-6.608505e-01	-3.170000e+00	-1.800000e-05	3.846156e-03	-1.800000e-05	-3.846156e-03	3.864157e-03
-3.160000000000018e+00	-6.608503e-01	-3.160000e+00	-1.800000e-05	3.845674e-03	-1.800000e-05	-3.845674e-03	3.863674e-03
-3.150000000000018e+00	-6.608503e-01	-3.150000e+00	-1.800000e-05	3.845192e-03	-1.800000e-05	-3.845192e-03	3.863192e-03
-3.140000000000018e+00	-6.608502e-01	-3.140000e+00	-1.800000e-05	3.844709e-03	-1.800000e-05	-3.844709e-03	3.862710e-03
-3.130000000000019e+00	-6.608501e-01	-3.130000e+00	-1.800000e-05	3.844227e-03	-1.800000e-05	-3.844227e-03	3.862227e-03
-3.120000000000019e+00	-6.608500e-01	-3.120000e+00	-1.800000e-05	3.843745e-03	-1.800000e-05	-3.843745e-03	3.861745e-03
-3.110000000000019e+00	-6.608499e-01	-3.110000e+00	-1.800000e-05	3.843262e-03	-1.800000e-05	-3.843262e-03	3.861262e-03
-3.100000000000019e+00	-6.608498e-01	-3.100000e+00	-1.800000e-05	3.842780e-03	-1.800000e-05	-3.842780e-03	3.860780e-03
-3.090000000000019e+00	-6.608497e-01	-3.090000e+00	-1.800000e-05	3.842298e-03	-1.800000e-05	-3.842298e-03	3.860298e-03
-3.080000000000020e+00	-6.608496e-01	-3.080000e+00	-1.800000e-05	3.841815e-03	-1.800000e-05	-3.841815e-03	3.859815e-03
-3.070000000000020e+00	-6.608495e-01	-3.070000e+00	-1.800000e-05	3.841333e-03	-1.800000e-05	-3.841333e-03	3.859333e-03
-3.060000000000020e+00	-6.608494e-01	-3.060000e+00	-1.800000e-05	3.840851e-03	-1.800000e-05	-3.840851e-03	3.858851e-03
-3.050000000000020e+00	-6.608493e-01	-3.050000e+00	-1.800000e-05	3.840368e-03	-1.800000e-05	-3.840368e-03	3.858368e-03
-3.040000000000020e+00	-6.608492e-01	-3.040000e+00	-1.800000e-05	3.839886e-03	-1.800000e-05	-3.839886e-03	3.857886e-03
-3.030000000000021e+00	-6.608491e-01	-3.030000e+00	-1.800000e-05	3.839403e-03	-1.800000e-05	-3.839403e-03	3.857404e-03
-3.020000000000021e+00	-6.608490e-01	-3.020000e+00	-1.800000e-05	3.838921e-03	-1.800000e-05	-3.838921e-03	3.856921e-03
-3.010000000000021e+00	-6.608489e-01	-3.010000e+00	-1.800000e-05	3.838439e-03	-1.800000e-05	-3.838439e-03	3.856439e-03
-3.000000000000021e+00	-6.608488e-01	-3.000000e+00	-1.800000e-05	3.837956e-03	-1.800000e-05	-3.837956e-03	3.855956e-03
-2.990000000000022e+00	-6.608487e-01	-2.990000e+00	-1.800000e-05	3.837474e-03	-1.800000e-05	-3.837474e-03	3.855474e-03
-2.980000000000022e+00	-6.608486e-01	-2.980000e+00	-1.800000e-05	3.836992e-03	-1.800000e-05	-3.836992e-03	3.854992e-03
-2.970000000000022e+00	-6.608486e-01	-2.970000e+00	-1.800000e-05	3.836509e-03	-1.800000e-05	-3.836509e-03	3.854509e-03
-2.960000000000022e+00	-6.608484e-01	-2.960000e+00	-1.800000e-05	3.836027e-03	-1.800000e-05	-3.836027e-03	3.854027e-03
-2.950000000000022e+00	-6.608483e-01	-2.950000e+00	-1.800000e-05	3.835545e-03	-1.800000e-05	-3.835545e-03	3.853545e-03
-2.940000000000023e+00	-6.608483e-01	-2.940000e+00	-1.800000e-05	3.835062e-03	-1.800000e-05	-3.835062e-03	3.853062e-03
-2.930000000000023e+00	-6.608481e-01	-2.930000e+00	-1.800000e-05	3.834580e-03	-1.800000e-05	-3.834580e-03	3.852580e-03
-2.920000000000023e+00	-6.608481e-01	-2.920000e+00	-1.800000e-05	3.834098e-03	-1.800000e-05	-3.834098e-03	3.852098e-03
-2.910000000000023e+00	-6.608480e-01	-2.910000e+00	-1.800000e-05	3.833615e-03	-1.800000e-05	-3.833615e-03	3.851615e-03
-2.900000000000023e+00	-6.608478e-01	-2.900000e+00	-1.800000e-05	3.833133e-03	-1.800000e-05	-3.833133e-03	3.851133e-03
-2.890000000000024e+00	-6.608478e-01	-2.890000e+00	-1.800000e-05	3.832651e-03	-1.800000e-05	-3.832651e-03	3.850651e-03
-2.880000000000024e+00	-6.608477e-01	-2.880000e+00	-1.800000e-05	3.832168e-03	-1.800000e-05	-3.832168e-03	3.850168e-03
-2.870000000000024e+00	-6.608475e-01	-2.870000e+00	-1.800000e-05	3.831686e-03	-1.800000e-05	-3.831686e-03	3.849686e-03
-2.860000000000024e+00	-6.608475e-01	-2.860000e+00	-1.800000e-05	3.831204e-03	-1.800000e-05	-3.831204e-03	3.849203e-03
-2.850000000000025e+00	-6.608474e-01	-2.850000e+00	-1.800000e-05	3.830721e-03	-1.800000e-05	-3.830721e-03	3.848721e-03
-2.840000000000025e+00	-6.608473e-01	-2.840000e+00	-1.800000e-05	3.830239e-03	-1.800000e-05	-3.830239e-03	3.848239e-03
-2.830000000000025e+00	-6.608472e-01	-2.830000e+00	-1.800000e-05	3.829756e-03	-1.800000e-05	-3.829756e-03	3.847756e-03
-2.820000000000025e+00	-6.608471e-01	-2.820000e+00	-1.800000e-05	3.829274e-03	-1.800000e-05	-3.829274e-03	3.847274e-03
-2.810000000000025e+00	-6.608470e-01	-2.810000e+00	-1.800000e-05	3.828792e-03	-1.800000e-05	-3.828792e-03	3.846792e-03
-2.800000000000026e+00	-6.608469e-01	-2.800000e+00	-1.800000e-05	3.828309e-03	-1.800000e-05	-3.828309e-03	3.846309e-03
-2.790000000000026e+00	-6.608468e-01	-2.790000e+00	-1.800000e-05	3.827827e-03	-1.800000e-05	-3.827827e-03	3.845827e-03
-2.780000000000026e+00	-6.608467e-01	-2.780000e+00	-1.800000e-05	3.827345e-03	-1.800000e-05	-3.827345e-03	3.845345e-03
-2.770000000000026e+00	-6.608466e-01	-2.770000e+00	-1.800000e-05	3.826862e-03	-1.800000e-05	-3.826862e-03	3.844862e-03
-2.760000000000026e+00	-6.608465e-01	-2.760000e+00	-1.800000e-05	3.826380e-03	-1.800000e-05	-3.826380e-03	3.844380e-03
-2.750000000000027e+00	-6.608464e-01	-2.750000e+00	-1.800000e-05	3.825898e-03	-1.800000e-05	-3.825898e-03	3.843897e-03
-2.740000000000027e+00	-6.608463e-01	-2.740000e+00	-1.800000e-05	3.825415e-03	-1.800000e-05	-3.825415e-03	3.843415e-03
-2.730000000000027e+00	-6.608462e-01	-2.730000e+00	-1.800000e-05	3.824933e-03	-1.800000e-05	-3.824933e-03	3.842933e-03
-2.720000000000027e+00	-6.608461e-01	-2.720000e+00	-1.800000e-05	3.824451e-03	-1.800000e-05	-3.824451e-03	3.842450e-03
-2.710000000000027e+00	-6.608461e-01	-2.710000e+00	-1.800000e-05	3.823968e-03	-1.800000e-05	-3.823968e-03	3.841968e-03
-2.700000000000028e+00	-6.608459e-01	-2.700000e+00	-1.800000e-05	3.823486e-03	-1.800000e-05	-3.823486e-03	3.841486e-03
-2.690000000000028e+00	-6.608458e-01	-2.690000e+00	-1.800000e-05	3.823003e-03	-1.800000e-05	-3.823003e-03	3.841003e-03
-2.680000000000028e+00	-6.608458e-01	-2.680000e+00	-1.800000e-05	3.822521e-03	-1.800000e-05	-3.822521e-03	3.840521e-03
-2.670000000000028e+00	-6.608456e-01	-2.670000e+00	-1.800000e-05	3.822039e-03	-1.800000e-05	-3.822039e-03	3.840039e-03
-2.660000000000029e+00	-6.608455e-01	-2.660000e+00	-1.800000e-05	3.821556e-03	-1.800000e-05	-3.821556e-03	3.839556e-03
-2.650000000000029e+00	-6.608455e-01	-2.650000e+00	-1.800000e-05	3.821074e-03	-1.800000e-05	-3.821074e-03	3.839074e-03
-2.640000000000029e+00	-6.608453e-01	-2.640000e+00	-1.800000e-05	3.820592e-03	-1.800000e-05	-3.820592e-03	3.838592e-03
-2.630000000000029e+00	-6.608453e-01	-2.630000e+00	-1.800000e-05	3.820109e-03	-1.800000e-05	-3.820109e-03	3.838109e-03
-2.620000000000029e+00	-6.608452e-01	-2.620000e+00	-1.800000e-05	3.819627e-03	-1.800000e-05	-3.819627e-03	3.837627e-03
-2.610000000000030e+00	-6.608450e-01	-2.610000e+00	-1.800000e-05	3.819145e-03	-1.800000e-05	-3.819145e-03	3.837144e-03
-2.600000000000030e+00	-6.608450e-01	-2.600000e+00	-1.800000e-05	3.818662e-03	-1.800000e-05	-3.818662e-03	3.836662e-03
-2.590000000000030e+00	-6.608449e-01	-2.590000e+00	-1.800000e-05	3.818180e-03	-1.800000e-05	-3.818180e-03	3.836180e-03
-2.580000000000030e+00	-6.608447e-01	-2.580000e+00	-1.800000e-05	3.817698e-03	-1.800000e-05	-3.817698e-03	3.835697e-03
-2.570000000000030e+00	-6.608447e-01	-2.570000e+00	-1.800000e-05	3.817215e-03	-1.800000e-05	-3.817215e-03	3.835215e-03
-2.560000000000031e+00	-6.608446e-01	-2.560000e+00	-1.800000e-05	3.816733e-03	-1.800000e-05	-3.816733e-03	3.834733e-03
-2.550000000000031e+00	-6.608445e-01	-2.550000e+00	-1.800000e-05	3.816250e-03	-1.800000e-05	-3.816250e-03	3.834250e-03
-2.540000000000031e+00	-6.608444e-01	-2.540000e+00	-1.800000e-05	3.815768e-03	-1.800000e-05	-3.815768e-03	3.833768e-03
-2.530000000000031e+00	-6.608443e-01	-2.530000e+00	-1.800000e-05	3.815286e-03	-1.800000e-05	-3.815286e-03	3.833286e-03
-2.520000000000032e+00	-6.608442e-01	-2.520000e+00	-1.800000e-05	3.814803e-03	-1.800000e-05	-3.814803e-03	3.832803e-03
-2.510000000000032e+00	-6.608441e-01	-2.510000e+00	-1.800000e-05	3.814321e-03	-1.800000e-05	-3.814321e-03	3.832321e-03
-2.500000000000032e+00	-6.608440e-01	-2.500000e+00	-1.800000e-05	3.813839e-03	-1.800000e-05	-3.813839e-03	3.831839e-03
-2.490000000000032e+00	-6.608439e-01	-2.490000e+00	-1.800000e-05	3.813356e-03	-1.800000e-05	-3.813356e-03	3.831356e-03
-2.480000000000032e+00	-6.608438e-01	-2.480000e+00	-1.800000e-05	3.812874e-03	-1.800000e-05	-3.812874e-03	3.830874e-03
-2.470000000000033e+00	-6.608437e-01	-2.470000e+00	-1.800000e-05	3.812392e-03	-1.800000e-05	-3.812392e-03	3.830392e-03
-2.460000000000033e+00	-6.608436e-01	-2.460000e+00	-1.800000e-05	3.811909e-03	-1.800000e-05	-3.811909e-03	3.829909e-03
-2.450000000000033e+00	-6.608435e-01	-2.450000e+00	-1.800000e-05	3.811427e-03	-1.800000e-05	-3.811427e-03	3.829427e-03
-2.440000000000033e+00	-6.608434e-01	-2.440000e+00	-1.800000e-05	3.810945e-03	-1.800000e-05	-3.810945e-03	3.828944e-03
-2.430000000000033e+00	-6.608433e-01	-2.430000e+00	-1.800000e-05	3.810462e-03	-1.800000e-05	-3.810462e-03	3.828462e-03
-2.420000000000034e+00	-6.608433e-01	-2.420000e+00	-1.800000e-05	3.809980e-03	-1.800000e-05	-3.809980e-03	3.827980e-03
-2.410000000000034e+00	-6.608431e-01	-2.410000e+00	-1.800000e-05	3.809497e-03	-1.800000e-05	-3.809497e-03	3.827497e-03
-2.400000000000034e+00	-6.608430e-01	-2.400000e+00	-1.800000e-05	3.809015e-03	-1.800000e-05	-3.809015e-03	3.827015e-03
-2.390000000000034e+00	-6.608430e-01	-2.390000e+00	-1.800000e-05	3.808533e-03	-1.800000e-05	-3.808533e-03	3.826533e-03
-2.380000000000035e+00	-6.608428e-01	-2.380000e+00	-1.800000e-05	3.808050e-03	-1.800000e-05	-3.808050e-03	3.826050e-03
-2.370000000000035e+00	-6.608427e-01	-2.370000e+00	-1.800000e-05	3.807568e-03	-1.800000e-05	-3.807568e-03	3.825568e-03
-2.360000000000035e+00	-6.608427e-01	-2.360000e+00	-1.800000e-05	3.807086e-03	-1.800000e-05	-3.807086e-03	3.825086e-03
-2.350000000000035e+00	-6.608425e-01	-2.350000e+00	-1.800000e-05	3.806603e-03	-1.800000e-05	-3.806603e-03	3.824603e-03
