v1	V(vbb)	V(vcc)	I(V1)	I(V2)	Ib(Q1)	Ic(Q1)	Ie(Q1)
-8.000000000000000e-01	-8.000000e-01	-3.000000e+00	1.127511e-03	1.052340e-01	-1.127511e-03	-1.052340e-01	1.063615e-01
-7.990000000000000e-01	-7.990000e-01	-3.000000e+00	1.103671e-03	1.042705e-01	-1.103671e-03	-1.042705e-01	1.053742e-01
-7.980000000000000e-01	-7.980000e-01	-3.000000e+00	1.080222e-03	1.032993e-01	-1.080222e-03	-1.032993e-01	1.043796e-01
-7.970000000000000e-01	-7.970000e-01	-3.000000e+00	1.057163e-03	1.023208e-01	-1.057163e-03	-1.023208e-01	1.033779e-01
-7.960000000000000e-01	-7.960000e-01	-3.000000e+00	1.034490e-03	1.013349e-01	-1.034490e-03	-1.013349e-01	1.023694e-01
-7.950000000000000e-01	-7.950000e-01	-3.000000e+00	1.012198e-03	1.003421e-01	-1.012198e-03	-1.003421e-01	1.013542e-01
-7.940000000000000e-01	-7.940000e-01	-3.000000e+00	9.902851e-04	9.934234e-02	-9.902851e-04	-9.934234e-02	1.003326e-01
-7.930000000000000e-01	-7.930000e-01	-3.000000e+00	9.687461e-04	9.833598e-02	-9.687461e-04	-9.833598e-02	9.930473e-02
-7.920000000000000e-01	-7.920000e-01	-3.000000e+00	9.475778e-04	9.732322e-02	-9.475778e-04	-9.732322e-02	9.827080e-02
-7.910000000000000e-01	-7.910000e-01	-3.000000e+00	9.267760e-04	9.630426e-02	-9.267760e-04	-9.630426e-02	9.723104e-02
-7.900000000000000e-01	-7.900000e-01	-3.000000e+00	9.063371e-04	9.527934e-02	-9.063371e-04	-9.527934e-02	9.618568e-02
-7.890000000000000e-01	-7.890000e-01	-3.000000e+00	8.862569e-04	9.424871e-02	-8.862569e-04	-9.424871e-02	9.513497e-02
-7.880000000000000e-01	-7.880000e-01	-3.000000e+00	8.665314e-04	9.321260e-02	-8.665314e-04	-9.321260e-02	9.407913e-02
-7.870000000000000e-01	-7.870000e-01	-3.000000e+00	8.471566e-04	9.217126e-02	-8.471566e-04	-9.217126e-02	9.301841e-02
-7.860000000000000e-01	-7.860000e-01	-3.000000e+00	8.281283e-04	9.112495e-02	-8.281283e-04	-9.112495e-02	9.195308e-02
-7.850000000000000e-01	-7.850000e-01	-3.000000e+00	8.094425e-04	9.007394e-02	-8.094425e-04	-9.007394e-02	9.088338e-02
-7.840000000000000e-01	-7.840000e-01	-3.000000e+00	7.910951e-04	8.901849e-02	-7.910951e-04	-8.901849e-02	8.980958e-02
-7.830000000000000e-01	-7.830000e-01	-3.000000e+00	7.730818e-04	8.795887e-02	-7.730818e-04	-8.795887e-02	8.873195e-02
-7.820000000000000e-01	-7.820000e-01	-3.000000e+00	7.553984e-04	8.689538e-02	-7.553984e-04	-8.689538e-02	8.765078e-02
-7.810000000000000e-01	-7.810000e-01	-3.000000e+00	7.380409e-04	8.582827e-02	-7.380409e-04	-8.582827e-02	8.656632e-02
-7.800000000000000e-01	-7.800000e-01	-3.000000e+00	7.210050e-04	8.475787e-02	-7.210050e-04	-8.475787e-02	8.547887e-02
-7.790000000000000e-01	-7.790000e-01	-3.000000e+00	7.042864e-04	8.368445e-02	-7.042864e-04	-8.368445e-02	8.438873e-02
-7.780000000000000e-01	-7.780000e-01	-3.000000e+00	6.878811e-04	8.260831e-02	-6.878811e-04	-8.260831e-02	8.329619e-02
-7.770000000000000e-01	-7.770000e-01	-3.000000e+00	6.717848e-04	8.152976e-02	-6.717848e-04	-8.152976e-02	8.220154e-02
-7.760000000000000e-01	-7.760000e-01	-3.000000e+00	6.559933e-04	8.044910e-02	-6.559933e-04	-8.044910e-02	8.110509e-02
-7.750000000000000e-01	-7.750000e-01	-3.000000e+00	6.405024e-04	7.936665e-02	-6.405024e-04	-7.936665e-02	8.000715e-02
-7.740000000000000e-01	-7.740000e-01	-3.000000e+00	6.253081e-04	7.828271e-02	-6.253081e-04	-7.828271e-02	7.890802e-02
-7.730000000000000e-01	-7.730000e-01	-3.000000e+00	6.104060e-04	7.719761e-02	-6.104060e-04	-7.719761e-02	7.780802e-02
-7.720000000000000e-01	-7.720000e-01	-3.000000e+00	5.957920e-04	7.611167e-02	-5.957920e-04	-7.611167e-02	7.670747e-02
-7.710000000000000e-01	-7.710000e-01	-3.000000e+00	5.814622e-04	7.502522e-02	-5.814622e-04	-7.502522e-02	7.560668e-02
-7.700000000000000e-01	-7.700000e-01	-3.000000e+00	5.674122e-04	7.393857e-02	-5.674122e-04	-7.393857e-02	7.450598e-02
-7.690000000000000e-01	-7.690000e-01	-3.000000e+00	5.536382e-04	7.285205e-02	-5.536382e-04	-7.285205e-02	7.340569e-02
-7.680000000000000e-01	-7.680000e-01	-3.000000e+00	5.401360e-04	7.176600e-02	-5.401360e-04	-7.176600e-02	7.230614e-02
-7.670000000000000e-01	-7.670000e-01	-3.000000e+00	5.269016e-04	7.068076e-02	-5.269016e-04	-7.068076e-02	7.120766e-02
-7.660000000000000e-01	-7.660000e-01	-3.000000e+00	5.139310e-04	6.959664e-02	-5.139310e-04	-6.959664e-02	7.011057e-02
-7.650000000000000e-01	-7.650000e-01	-3.000000e+00	5.012203e-04	6.851399e-02	-5.012203e-04	-6.851399e-02	6.901521e-02
-7.640000000000000e-01	-7.640000e-01	-3.000000e+00	4.887655e-04	6.743314e-02	-4.887655e-04	-6.743314e-02	6.792191e-02
-7.630000000000000e-01	-7.630000e-01	-3.000000e+00	4.765628e-04	6.635443e-02	-4.765628e-04	-6.635443e-02	6.683099e-02
-7.620000000000000e-01	-7.620000e-01	-3.000000e+00	4.646083e-04	6.527819e-02	-4.646083e-04	-6.527819e-02	6.574281e-02
-7.610000000000000e-01	-7.610000e-01	-3.000000e+00	4.528981e-04	6.420477e-02	-4.528981e-04	-6.420477e-02	6.465767e-02
-7.600000000000000e-01	-7.600000e-01	-3.000000e+00	4.414285e-04	6.313449e-02	-4.414285e-04	-6.313449e-02	6.357592e-02
-7.590000000000000e-01	-7.590000e-01	-3.000000e+00	4.301958e-04	6.206769e-02	-4.301958e-04	-6.206769e-02	6.249789e-02
-7.580000000000000e-01	-7.580000e-01	-3.000000e+00	4.191961e-04	6.100471e-02	-4.191961e-04	-6.100471e-02	6.142390e-02
-7.570000000000000e-01	-7.570000e-01	-3.000000e+00	4.084260e-04	5.994587e-02	-4.084260e-04	-5.994587e-02	6.035429e-02
-7.560000000000000e-01	-7.560000e-01	-3.000000e+00	3.978818e-04	5.889151e-02	-3.978818e-04	-5.889151e-02	5.928938e-02
-7.550000000000000e-01	-7.550000e-01	-3.000000e+00	3.875598e-04	5.784195e-02	-3.875598e-04	-5.784195e-02	5.822951e-02
-7.540000000000000e-01	-7.540000e-01	-3.000000e+00	3.774565e-04	5.679753e-02	-3.774565e-04	-5.679753e-02	5.717498e-02
-7.530000000000000e-01	-7.530000e-01	-3.000000e+00	3.675685e-04	5.575856e-02	-3.675685e-04	-5.575856e-02	5.612613e-02
-7.520000000000000e-01	-7.520000e-01	-3.000000e+00	3.578922e-04	5.472537e-02	-3.578922e-04	-5.472537e-02	5.508326e-02
-7.510000000000000e-01	-7.510000e-01	-3.000000e+00	3.484243e-04	5.369828e-02	-3.484243e-04	-5.369828e-02	5.404670e-02
-7.500000000000000e-01	-7.500000e-01	-3.000000e+00	3.391614e-04	5.267759e-02	-3.391614e-04	-5.267759e-02	5.301675e-02
-7.490000000000000e-01	-7.490000e-01	-3.000000e+00	3.301001e-04	5.166362e-02	-3.301001e-04	-5.166362e-02	5.199372e-02
-7.480000000000000e-01	-7.480000e-01	-3.000000e+00	3.212372e-04	5.065667e-02	-3.212372e-04	-5.065667e-02	5.097790e-02
-7.470000000000000e-01	-7.470000e-01	-3.000000e+00	3.125694e-04	4.965704e-02	-3.125694e-04	-4.965704e-02	4.996961e-02
-7.460000000000000e-01	-7.460000e-01	-3.000000e+00	3.040935e-04	4.866504e-02	-3.040935e-04	-4.866504e-02	4.896913e-02
-7.450000000000000e-01	-7.450000e-01	-3.000000e+00	2.958063e-04	4.768094e-02	-2.958063e-04	-4.768094e-02	4.797674e-02
-7.440000000000000e-01	-7.440000e-01	-3.000000e+00	2.877046e-04	4.670503e-02	-2.877046e-04	-4.670503e-02	4.699273e-02
-7.430000000000000e-01	-7.430000e-01	-3.000000e+00	2.797855e-04	4.573759e-02	-2.797855e-04	-4.573759e-02	4.601738e-02
-7.420000000000000e-01	-7.420000e-01	-3.000000e+00	2.720459e-04	4.477890e-02	-2.720459e-04	-4.477890e-02	4.505095e-02
-7.410000000000000e-01	-7.410000e-01	-3.000000e+00	2.644826e-04	4.382921e-02	-2.644826e-04	-4.382921e-02	4.409369e-02
-7.400000000000000e-01	-7.400000e-01	-3.000000e+00	2.570928e-04	4.288879e-02	-2.570928e-04	-4.288879e-02	4.314588e-02
-7.390000000000000e-01	-7.390000e-01	-3.000000e+00	2.498736e-04	4.195788e-02	-2.498736e-04	-4.195788e-02	4.220776e-02
-7.380000000000000e-01	-7.380000e-01	-3.000000e+00	2.428219e-04	4.103673e-02	-2.428219e-04	-4.103673e-02	4.127955e-02
-7.370000000000000e-01	-7.370000e-01	-3.000000e+00	2.359350e-04	4.012557e-02	-2.359350e-04	-4.012557e-02	4.036151e-02
-7.360000000000000e-01	-7.360000e-01	-3.000000e+00	2.292100e-04	3.922464e-02	-2.292100e-04	-3.922464e-02	3.945385e-02
-7.350000000000000e-01	-7.350000e-01	-3.000000e+00	2.226441e-04	3.833414e-02	-2.226441e-04	-3.833414e-02	3.855678e-02
-7.340000000000000e-01	-7.340000e-01	-3.000000e+00	2.162345e-04	3.745428e-02	-2.162345e-04	-3.745428e-02	3.767052e-02
-7.330000000000000e-01	-7.330000e-01	-3.000000e+00	2.099786e-04	3.658528e-02	-2.099786e-04	-3.658528e-02	3.679526e-02
-7.320000000000000e-01	-7.320000e-01	-3.000000e+00	2.038735e-04	3.572731e-02	-2.038735e-04	-3.572731e-02	3.593118e-02
-7.310000000000000e-01	-7.310000e-01	-3.000000e+00	1.979167e-04	3.488056e-02	-1.979167e-04	-3.488056e-02	3.507847e-02
-7.300000000000000e-01	-7.300000e-01	-3.000000e+00	1.921055e-04	3.404520e-02	-1.921055e-04	-3.404520e-02	3.423730e-02
-7.290000000000000e-01	-7.290000e-01	-3.000000e+00	1.864372e-04	3.322139e-02	-1.864372e-04	-3.322139e-02	3.340782e-02
-7.280000000000000e-01	-7.280000e-01	-3.000000e+00	1.809094e-04	3.240928e-02	-1.809094e-04	-3.240928e-02	3.259019e-02
-7.270000000000000e-01	-7.270000e-01	-3.000000e+00	1.755194e-04	3.160901e-02	-1.755194e-04	-3.160901e-02	3.178453e-02
-7.260000000000000e-01	-7.260000e-01	-3.000000e+00	1.702648e-04	3.082072e-02	-1.702648e-04	-3.082072e-02	3.099098e-02
-7.250000000000000e-01	-7.250000e-01	-3.000000e+00	1.651429e-04	3.004452e-02	-1.651429e-04	-3.004452e-02	3.020966e-02
-7.240000000000000e-01	-7.240000e-01	-3.000000e+00	1.601515e-04	2.928052e-02	-1.601515e-04	-2.928052e-02	2.944067e-02
-7.230000000000000e-01	-7.230000e-01	-3.000000e+00	1.552879e-04	2.852882e-02	-1.552879e-04	-2.852882e-02	2.868410e-02
-7.220000000000000e-01	-7.220000e-01	-3.000000e+00	1.505498e-04	2.778950e-02	-1.505498e-04	-2.778950e-02	2.794005e-02
-7.210000000000000e-01	-7.210000e-01	-3.000000e+00	1.459348e-04	2.706265e-02	-1.459348e-04	-2.706265e-02	2.720859e-02
-7.200000000000000e-01	-7.200000e-01	-3.000000e+00	1.414406e-04	2.634833e-02	-1.414406e-04	-2.634833e-02	2.648977e-02
-7.190000000000000e-01	-7.190000e-01	-3.000000e+00	1.370647e-04	2.564658e-02	-1.370647e-04	-2.564658e-02	2.578365e-02
-7.180000000000000e-01	-7.180000e-01	-3.000000e+00	1.328049e-04	2.495747e-02	-1.328049e-04	-2.495747e-02	2.509027e-02
-7.170000000000000e-01	-7.170000e-01	-3.000000e+00	1.286589e-04	2.428101e-02	-1.286589e-04	-2.428101e-02	2.440966e-02
-7.160000000000000e-01	-7.160000e-01	-3.000000e+00	1.246243e-04	2.361722e-02	-1.246243e-04	-2.361722e-02	2.374185e-02
-7.150000000000000e-01	-7.150000e-01	-3.000000e+00	1.206990e-04	2.296613e-02	-1.206990e-04	-2.296613e-02	2.308683e-02
-7.140000000000000e-01	-7.140000e-01	-3.000000e+00	1.168807e-04	2.232773e-02	-1.168807e-04	-2.232773e-02	2.244461e-02
-7.130000000000000e-01	-7.130000e-01	-3.000000e+00	1.131672e-04	2.170201e-02	-1.131672e-04	-2.170201e-02	2.181518e-02
-7.120000000000000e-01	-7.120000e-01	-3.000000e+00	1.095563e-04	2.108894e-02	-1.095563e-04	-2.108894e-02	2.119850e-02
-7.110000000000000e-01	-7.110000e-01	-3.000000e+00	1.060460e-04	2.048851e-02	-1.060460e-04	-2.048851e-02	2.059455e-02
-7.100000000000000e-01	-7.100000e-01	-3.000000e+00	1.026339e-04	1.990066e-02	-1.026339e-04	-1.990066e-02	2.000329e-02
-7.090000000000000e-01	-7.090000e-01	-3.000000e+00	9.931807e-05	1.932534e-02	-9.931807e-05	-1.932534e-02	1.942466e-02
-7.080000000000000e-01	-7.080000e-01	-3.000000e+00	9.609636e-05	1.876250e-02	-9.609636e-05	-1.876250e-02	1.885860e-02
-7.070000000000000e-01	-7.070000e-01	-3.000000e+00	9.296671e-05	1.821207e-02	-9.296671e-05	-1.821207e-02	1.830503e-02
-7.060000000000000e-01	-7.060000e-01	-3.000000e+00	8.992710e-05	1.767396e-02	-8.992710e-05	-1.767396e-02	1.776389e-02
-7.050000000000000e-01	-7.050000e-01	-3.000000e+00	8.697547e-05	1.714810e-02	-8.697547e-05	-1.714810e-02	1.723507e-02
-7.040000000000000e-01	-7.040000e-01	-3.000000e+00	8.410985e-05	1.663438e-02	-8.410985e-05	-1.663438e-02	1.671849e-02
-7.030000000000000e-01	-7.030000e-01	-3.000000e+00	8.132826e-05	1.613270e-02	-8.132826e-05	-1.613270e-02	1.621403e-02
-7.020000000000000e-01	-7.020000e-01	-3.000000e+00	7.862875e-05	1.564295e-02	-7.862875e-05	-1.564295e-02	1.572158e-02
-7.010000000000000e-01	-7.010000e-01	-3.000000e+00	7.600939e-05	1.516502e-02	-7.600939e-05	-1.516502e-02	1.524103e-02
-7.000000000000000e-01	-7.000000e-01	-3.000000e+00	7.346829e-05	1.469877e-02	-7.346829e-05	-1.469877e-02	1.477224e-02
-6.990000000000000e-01	-6.990000e-01	-3.000000e+00	7.100357e-05	1.424408e-02	-7.100357e-05	-1.424408e-02	1.431508e-02
-6.980000000000000e-01	-6.980000e-01	-3.000000e+00	6.861336e-05	1.380081e-02	-6.861336e-05	-1.380081e-02	1.386942e-02
-6.970000000000000e-01	-6.970000e-01	-3.000000e+00	6.629587e-05	1.336880e-02	-6.629587e-05	-1.336880e-02	1.343510e-02
-6.960000000000000e-01	-6.960000e-01	-3.000000e+00	6.404927e-05	1.294792e-02	-6.404927e-05	-1.294792e-02	1.301197e-02
-6.950000000000000e-01	-6.950000e-01	-3.000000e+00	6.187180e-05	1.253801e-02	-6.187180e-05	-1.253801e-02	1.259988e-02
-6.940000000000000e-01	-6.940000e-01	-3.000000e+00	5.976170e-05	1.213891e-02	-5.976170e-05	-1.213891e-02	1.219867e-02
-6.929999999999999e-01	-6.930000e-01	-3.000000e+00	5.771727e-05	1.175045e-02	-5.771727e-05	-1.175045e-02	1.180816e-02
-6.919999999999999e-01	-6.920000e-01	-3.000000e+00	5.573679e-05	1.137246e-02	-5.573679e-05	-1.137246e-02	1.142820e-02
-6.909999999999999e-01	-6.910000e-01	-3.000000e+00	5.381860e-05	1.100478e-02	-5.381860e-05	-1.100478e-02	1.105860e-02
-6.899999999999999e-01	-6.900000e-01	-3.000000e+00	5.196107e-05	1.064723e-02	-5.196107e-05	-1.064723e-02	1.069919e-02
-6.889999999999999e-01	-6.890000e-01	-3.000000e+00	5.016257e-05	1.029963e-02	-5.016257e-05	-1.029963e-02	1.034980e-02
-6.879999999999999e-01	-6.880000e-01	-3.000000e+00	4.842152e-05	9.961807e-03	-4.842152e-05	-9.961807e-03	1.001023e-02
-6.869999999999999e-01	-6.870000e-01	-3.000000e+00	4.673636e-05	9.633569e-03	-4.673636e-05	-9.633569e-03	9.680306e-03
-6.859999999999999e-01	-6.860000e-01	-3.000000e+00	4.510556e-05	9.314735e-03	-4.510556e-05	-9.314735e-03	9.359841e-03
-6.849999999999999e-01	-6.850000e-01	-3.000000e+00	4.352763e-05	9.005122e-03	-4.352763e-05	-9.005122e-03	9.048650e-03
-6.839999999999999e-01	-6.840000e-01	-3.000000e+00	4.200107e-05	8.704540e-03	-4.200107e-05	-8.704540e-03	8.746542e-03
-6.829999999999999e-01	-6.830000e-01	-3.000000e+00	4.052445e-05	8.412804e-03	-4.052445e-05	-8.412804e-03	8.453328e-03
-6.819999999999999e-01	-6.820000e-01	-3.000000e+00	3.909635e-05	8.129723e-03	-3.909635e-05	-8.129723e-03	8.168820e-03
-6.809999999999999e-01	-6.810000e-01	-3.000000e+00	3.771538e-05	7.855112e-03	-3.771538e-05	-7.855112e-03	7.892828e-03
-6.799999999999999e-01	-6.800000e-01	-3.000000e+00	3.638018e-05	7.588780e-03	-3.638018e-05	-7.588780e-03	7.625160e-03
-6.789999999999999e-01	-6.790000e-01	-3.000000e+00	3.508941e-05	7.330539e-03	-3.508941e-05	-7.330539e-03	7.365629e-03
-6.779999999999999e-01	-6.780000e-01	-3.000000e+00	3.384178e-05	7.080203e-03	-3.384178e-05	-7.080203e-03	7.114045e-03
-6.769999999999999e-01	-6.770000e-01	-3.000000e+00	3.263600e-05	6.837585e-03	-3.263600e-05	-6.837585e-03	6.870220e-03
-6.759999999999999e-01	-6.760000e-01	-3.000000e+00	3.147082e-05	6.602498e-03	-3.147082e-05	-6.602498e-03	6.633969e-03
-6.749999999999999e-01	-6.750000e-01	-3.000000e+00	3.034504e-05	6.374759e-03	-3.034504e-05	-6.374759e-03	6.405104e-03
-6.739999999999999e-01	-6.740000e-01	-3.000000e+00	2.925744e-05	6.154184e-03	-2.925744e-05	-6.154184e-03	6.183442e-03
-6.729999999999999e-01	-6.730000e-01	-3.000000e+00	2.820688e-05	5.940594e-03	-2.820688e-05	-5.940594e-03	5.968800e-03
-6.719999999999999e-01	-6.720000e-01	-3.000000e+00	2.719222e-05	5.733807e-03	-2.719222e-05	-5.733807e-03	5.760999e-03
-6.709999999999999e-01	-6.710000e-01	-3.000000e+00	2.621234e-05	5.533647e-03	-2.621234e-05	-5.533647e-03	5.559859e-03
-6.699999999999999e-01	-6.700000e-01	-3.000000e+00	2.526616e-05	5.339938e-03	-2.526616e-05	-5.339938e-03	5.365204e-03
-6.689999999999999e-01	-6.690000e-01	-3.000000e+00	2.435263e-05	5.152507e-03	-2.435263e-05	-5.152507e-03	5.176860e-03
-6.679999999999999e-01	-6.680000e-01	-3.000000e+00	2.347072e-05	4.971185e-03	-2.347072e-05	-4.971185e-03	4.994655e-03
-6.669999999999999e-01	-6.670000e-01	-3.000000e+00	2.261943e-05	4.795802e-03	-2.261943e-05	-4.795802e-03	4.818421e-03
-6.659999999999999e-01	-6.660000e-01	-3.000000e+00	2.179778e-05	4.626193e-03	-2.179778e-05	-4.626193e-03	4.647991e-03
-6.649999999999999e-01	-6.650000e-01	-3.000000e+00	2.100482e-05	4.462196e-03	-2.100482e-05	-4.462196e-03	4.483201e-03
-6.639999999999999e-01	-6.640000e-01	-3.000000e+00	2.023962e-05	4.303650e-03	-2.023962e-05	-4.303650e-03	4.323890e-03
-6.629999999999999e-01	-6.630000e-01	-3.000000e+00	1.950129e-05	4.150399e-03	-1.950129e-05	-4.150399e-03	4.169901e-03
-6.619999999999999e-01	-6.620000e-01	-3.000000e+00	1.878895e-05	4.002289e-03	-1.878895e-05	-4.002289e-03	4.021078e-03
-6.609999999999999e-01	-6.610000e-01	-3.000000e+00	1.810175e-05	3.859168e-03	-1.810175e-05	-3.859168e-03	3.877270e-03
-6.599999999999999e-01	-6.600000e-01	-3.000000e+00	1.743886e-05	3.720888e-03	-1.743886e-05	-3.720888e-03	3.738327e-03
-6.589999999999999e-01	-6.590000e-01	-3.000000e+00	1.679948e-05	3.587305e-03	-1.679948e-05	-3.587305e-03	3.604105e-03
-6.579999999999999e-01	-6.580000e-01	-3.000000e+00	1.618282e-05	3.458276e-03	-1.618282e-05	-3.458276e-03	3.474459e-03
-6.569999999999999e-01	-6.570000e-01	-3.000000e+00	1.558812e-05	3.333663e-03	-1.558812e-05	-3.333663e-03	3.349251e-03
-6.559999999999999e-01	-6.560000e-01	-3.000000e+00	1.501466e-05	3.213329e-03	-1.501466e-05	-3.213329e-03	3.228344e-03
-6.549999999999999e-01	-6.550000e-01	-3.000000e+00	1.446171e-05	3.097143e-03	-1.446171e-05	-3.097143e-03	3.111605e-03
-6.539999999999999e-01	-6.540000e-01	-3.000000e+00	1.392858e-05	2.984975e-03	-1.392858e-05	-2.984975e-03	2.998903e-03
-6.529999999999999e-01	-6.530000e-01	-3.000000e+00	1.341460e-05	2.876698e-03	-1.341460e-05	-2.876698e-03	2.890112e-03
-6.519999999999999e-01	-6.520000e-01	-3.000000e+00	1.291911e-05	2.772189e-03	-1.291911e-05	-2.772189e-03	2.785109e-03
-6.509999999999999e-01	-6.510000e-01	-3.000000e+00	1.244149e-05	2.671329e-03	-1.244149e-05	-2.671329e-03	2.683771e-03
-6.499999999999999e-01	-6.500000e-01	-3.000000e+00	1.198111e-05	2.574000e-03	-1.198111e-05	-2.574000e-03	2.585981e-03
-6.489999999999999e-01	-6.490000e-01	-3.000000e+00	1.153739e-05	2.480089e-03	-1.153739e-05	-2.480089e-03	2.491626e-03
-6.479999999999999e-01	-6.480000e-01	-3.000000e+00	1.110975e-05	2.389483e-03	-1.110975e-05	-2.389483e-03	2.400593e-03
-6.469999999999999e-01	-6.470000e-01	-3.000000e+00	1.069763e-05	2.302076e-03	-1.069763e-05	-2.302076e-03	2.312774e-03
-6.459999999999999e-01	-6.460000e-01	-3.000000e+00	1.030048e-05	2.217762e-03	-1.030048e-05	-2.217762e-03	2.228063e-03
-6.449999999999999e-01	-6.450000e-01	-3.000000e+00	9.917803e-06	2.136439e-03	-9.917803e-06	-2.136439e-03	2.146357e-03
-6.439999999999999e-01	-6.440000e-01	-3.000000e+00	9.549072e-06	2.058008e-03	-9.549072e-06	-2.058008e-03	2.067557e-03
-6.429999999999999e-01	-6.430000e-01	-3.000000e+00	9.193804e-06	1.982372e-03	-9.193804e-06	-1.982372e-03	1.991566e-03
-6.419999999999999e-01	-6.420000e-01	-3.000000e+00	8.851523e-06	1.909438e-03	-8.851523e-06	-1.909438e-03	1.918290e-03
-6.409999999999999e-01	-6.410000e-01	-3.000000e+00	8.521773e-06	1.839115e-03	-8.521773e-06	-1.839115e-03	1.847637e-03
-6.399999999999999e-01	-6.400000e-01	-3.000000e+00	8.204108e-06	1.771314e-03	-8.204108e-06	-1.771314e-03	1.779518e-03
-6.389999999999999e-01	-6.390000e-01	-3.000000e+00	7.898101e-06	1.705950e-03	-7.898101e-06	-1.705950e-03	1.713848e-03
-6.379999999999999e-01	-6.380000e-01	-3.000000e+00	7.603337e-06	1.642939e-03	-7.603337e-06	-1.642939e-03	1.650542e-03
-6.369999999999999e-01	-6.370000e-01	-3.000000e+00	7.319414e-06	1.582201e-03	-7.319414e-06	-1.582201e-03	1.589520e-03
-6.359999999999999e-01	-6.360000e-01	-3.000000e+00	7.045947e-06	1.523658e-03	-7.045947e-06	-1.523658e-03	1.530704e-03
-6.349999999999999e-01	-6.350000e-01	-3.000000e+00	6.782560e-06	1.467235e-03	-6.782560e-06	-1.467235e-03	1.474017e-03
-6.339999999999999e-01	-6.340000e-01	-3.000000e+00	6.528892e-06	1.412857e-03	-6.528892e-06	-1.412857e-03	1.419386e-03
